T1D00 000:216.071   SEGGER J-Link V7.55a (beta) Log File
T1D00 000:216.204   DLL Compiled: Sep  1 2021 22:57:48
T1D00 000:216.210   Logging started @ 2021-09-12 09:55
T1D00 000:216.216 - 216.219ms
T1D00 000:216.224 JLINK_SetWarnOutHandler(...)
T1D00 000:216.231 - 0.010ms
T1D00 000:216.238 JLINK_OpenEx(...)
T1D00 000:217.252   Firmware: J-Link V11 compiled Apr  1 2021 15:10:49
T1D00 000:217.621   Firmware: J-Link V11 compiled Apr  1 2021 15:10:49
T1D00 000:237.755   Hardware: V11.00
T1D00 000:237.773   S/N: 50120677
T1D00 000:237.782   OEM: SEGGER
T1D00 000:237.790   Feature(s): GDB, JFlash, FlashDL, RDI, FlashBP
T1D00 000:239.195   TELNET listener socket opened on port 19021
T1D00 000:239.277   WEBSRV Starting webserver
T1D00 000:239.542   WEBSRV Webserver running on local port 19080
T1D00 000:255.452 - 39.228ms returns "O.K."
T1D00 000:255.485 JLINK_SetErrorOutHandler(...)
T1D00 000:255.491 - 0.009ms
T1D00 000:255.511 JLINK_ExecCommand("ProjectFile = "E:\doc\9，增值资料\1，ALIENTEK 产品资料\11，ATK-MPU6050六轴传感器模块\2，程序源码\（库函数版本，适合精英STM32开发板）实验30 MPU6050六轴传感器实验\USER\JLinkSettings.ini"", ...). 
T1D00 000:263.582   Ref file found at: E:\Keil_v5\ARM\Segger\JLinkDevices.ref
T1D00 000:263.709   XML referenced by ref file: C:\Program Files (x86)\SEGGER\JLink\JLinkDevices.xml
T1D00 000:264.354   C:\Program Files (x86)\SEGGER\JLink\JLinkDevices.xml evaluated successfully.
T1D00 000:297.842 - 42.340ms returns 0x00
T1D00 000:311.826 JLINK_ExecCommand("Device = STM32F103ZE", ...). 
T1D00 000:325.468   Device "STM32F103ZE" selected.
T1D00 000:325.845 - 14.002ms returns 0x00
T1D00 000:325.861 JLINK_ExecCommand("DisableConnectionTimeout", ...). 
T1D00 000:325.873 - 0.004ms returns 0x01
T1D00 000:325.881 JLINK_GetHardwareVersion()
T1D00 000:325.887 - 0.009ms returns 110000
T1D00 000:325.895 JLINK_GetDLLVersion()
T1D00 000:325.900 - 0.008ms returns 75501
T1D00 000:325.908 JLINK_GetOEMString(...)
T1D00 000:325.917 JLINK_GetFirmwareString(...)
T1D00 000:325.926 - 0.012ms
T1D00 000:361.728 JLINK_GetDLLVersion()
T1D00 000:361.750 - 0.024ms returns 75501
T1D00 000:361.758 JLINK_GetCompileDateTime()
T1D00 000:361.764 - 0.008ms
T1D00 000:373.356 JLINK_GetFirmwareString(...)
T1D00 000:373.382 - 0.030ms
T1D00 000:384.433 JLINK_GetHardwareVersion()
T1D00 000:384.450 - 0.020ms returns 110000
T1D00 000:396.284 JLINK_GetSN()
T1D00 000:396.305 - 0.024ms returns 50120677
T1D00 000:408.397 JLINK_GetOEMString(...)
T1D00 000:429.633 JLINK_TIF_Select(JLINKARM_TIF_SWD)
T1D00 000:430.278 - 0.651ms returns 0x00
T1D00 000:430.292 JLINK_HasError()
T1D00 000:430.305 JLINK_SetSpeed(50000)
T1D00 000:430.426 - 0.139ms
T1D00 000:430.454 JLINK_GetId()
T1D00 000:441.531   InitTarget() start
T1D00 000:441.549    J-Link Script File: Executing InitTarget()
T1D00 000:456.651   InitTarget() end
T1D00 000:467.134   Found SW-DP with ID 0x1BA01477
T1D00 000:478.778   DPIDR: 0x1BA01477
T1D00 000:488.777   Scanning AP map to find all available APs
T1D00 000:500.008   AP[1]: Stopped AP scan as end of AP map has been reached
T1D00 000:509.061   AP[0]: AHB-AP (IDR: 0x14770011)
T1D00 000:517.716   Iterating through AP map to find AHB-AP to use
T1D00 000:527.164   AP[0]: Core found
T1D00 000:536.608   AP[0]: AHB-AP ROM base: 0xE00FF000
T1D00 000:546.183   CPUID register: 0x411FC231. Implementer code: 0x41 (ARM)
T1D00 000:554.712   Found Cortex-M3 r1p1, Little endian.
T1D00 000:655.317   -- Max. mem block: 0x00004518
T1D00 000:655.455   CPU_ReadMem(4 bytes @ 0xE000EDF0)
T1D00 000:655.731   CPU_WriteMem(4 bytes @ 0xE000EDF0)
T1D00 000:655.995   CPU_ReadMem(4 bytes @ 0xE0002000)
T1D00 000:663.907   FPUnit: 6 code (BP) slots and 2 literal slots
T1D00 000:663.927   CPU_ReadMem(4 bytes @ 0xE000EDFC)
T1D00 000:664.056   CPU_WriteMem(4 bytes @ 0xE000EDFC)
T1D00 000:664.238   CPU_ReadMem(4 bytes @ 0xE0001000)
T1D00 000:664.485   CPU_WriteMem(4 bytes @ 0xE0001000)
T1D00 000:664.742   CPU_ReadMem(4 bytes @ 0xE000ED88)
T1D00 000:664.986   CPU_WriteMem(4 bytes @ 0xE000ED88)
T1D00 000:665.244   CPU_ReadMem(4 bytes @ 0xE000ED88)
T1D00 000:665.485   CPU_WriteMem(4 bytes @ 0xE000ED88)
T1D00 000:672.393   CoreSight components:
T1D00 000:680.165   ROMTbl[0] @ E00FF000
T1D00 000:680.184   CPU_ReadMem(64 bytes @ 0xE00FF000)
T1D00 000:680.424   CPU_ReadMem(32 bytes @ 0xE000EFE0)
T1D00 000:687.976   ROMTbl[0][0]: E000E000, CID: B105E00D, PID: 001BB000 SCS
T1D00 000:687.998   CPU_ReadMem(32 bytes @ 0xE0001FE0)
T1D00 000:695.581   ROMTbl[0][1]: E0001000, CID: B105E00D, PID: 001BB002 DWT
T1D00 000:695.608   CPU_ReadMem(32 bytes @ 0xE0002FE0)
T1D00 000:702.805   ROMTbl[0][2]: E0002000, CID: B105E00D, PID: 000BB003 FPB
T1D00 000:702.827   CPU_ReadMem(32 bytes @ 0xE0000FE0)
T1D00 000:710.363   ROMTbl[0][3]: E0000000, CID: B105E00D, PID: 001BB001 ITM
T1D00 000:710.386   CPU_ReadMem(32 bytes @ 0xE0040FE0)
T1D00 000:716.964   ROMTbl[0][4]: E0040000, CID: B105900D, PID: 001BB923 TPIU-Lite
T1D00 000:716.980   CPU_ReadMem(32 bytes @ 0xE0041FE0)
T1D00 000:722.548   ROMTbl[0][5]: E0041000, CID: B105900D, PID: 101BB924 ETM-M3
T1D00 000:722.725 - 292.279ms returns 0x1BA01477
T1D00 000:722.743 JLINK_GetDLLVersion()
T1D00 000:722.749 - 0.009ms returns 75501
T1D00 000:722.758 JLINK_CORE_GetFound()
T1D00 000:722.764 - 0.008ms returns 0x30000FF
T1D00 000:722.773 JLINK_GetDebugInfo(0x100 = JLINKARM_ROM_TABLE_ADDR_INDEX)
T1D00 000:722.784   Value=0xE00FF000
T1D00 000:722.793 - 0.022ms returns 0
T1D00 000:731.523 JLINK_GetDebugInfo(0x100 = JLINKARM_ROM_TABLE_ADDR_INDEX)
T1D00 000:731.535   Value=0xE00FF000
T1D00 000:731.544 - 0.024ms returns 0
T1D00 000:731.552 JLINK_GetDebugInfo(0x101 = JLINKARM_DEBUG_INFO_ETM_ADDR_INDEX)
T1D00 000:731.558   Value=0xE0041000
T1D00 000:731.566 - 0.016ms returns 0
T1D00 000:731.573 JLINK_GetDebugInfo(0x102 = JLINKARM_DEBUG_INFO_MTB_ADDR_INDEX)
T1D00 000:731.579   Value=0x00000000
T1D00 000:731.586 - 0.016ms returns 0
T1D00 000:731.593 JLINK_GetDebugInfo(0x103 = JLINKARM_DEBUG_INFO_TPIU_ADDR_INDEX)
T1D00 000:731.599   Value=0xE0040000
T1D00 000:731.607 - 0.016ms returns 0
T1D00 000:731.614 JLINK_GetDebugInfo(0x104 = JLINKARM_DEBUG_INFO_ITM_ADDR_INDEX)
T1D00 000:731.620   Value=0xE0000000
T1D00 000:731.628 - 0.016ms returns 0
T1D00 000:731.634 JLINK_GetDebugInfo(0x105 = JLINKARM_DEBUG_INFO_DWT_ADDR_INDEX)
T1D00 000:731.640   Value=0xE0001000
T1D00 000:731.647 - 0.016ms returns 0
T1D00 000:731.654 JLINK_GetDebugInfo(0x106 = JLINKARM_DEBUG_INFO_FPB_ADDR_INDEX)
T1D00 000:731.660   Value=0xE0002000
T1D00 000:731.668 - 0.016ms returns 0
T1D00 000:731.674 JLINK_GetDebugInfo(0x107 = JLINKARM_DEBUG_INFO_NVIC_ADDR_INDEX)
T1D00 000:731.680   Value=0xE000E000
T1D00 000:731.688 - 0.016ms returns 0
T1D00 000:731.695 JLINK_GetDebugInfo(0x10C = JLINKARM_DEBUG_INFO_DBG_ADDR_INDEX)
T1D00 000:731.701   Value=0xE000EDF0
T1D00 000:731.709 - 0.016ms returns 0
T1D00 000:731.719 JLINK_ReadMemU32(0xE000ED00, 0x1 Items)
T1D00 000:731.744   CPU_ReadMem(4 bytes @ 0xE000ED00)
T1D00 000:731.882   Data:  31 C2 1F 41
T1D00 000:731.899   Debug reg: CPUID
T1D00 000:731.908 - 0.191ms returns 1 (0x1)
T1D00 000:731.919 JLINK_HasError()
T1D00 000:731.927 JLINK_SetResetType(JLINKARM_CM3_RESET_TYPE_NORMAL)
T1D00 000:731.933 - 0.009ms returns JLINKARM_CM3_RESET_TYPE_NORMAL
T1D00 000:731.940 JLINK_Reset()
T1D00 000:731.962   CPU is running
T1D00 000:731.974   CPU_WriteMem(4 bytes @ 0xE000EDF0)
T1D00 000:732.122   CPU is running
T1D00 000:732.131   CPU_WriteMem(4 bytes @ 0xE000EDFC)
T1D00 000:737.864   Reset: Halt core after reset via DEMCR.VC_CORERESET.
T1D00 000:745.073   Reset: Reset device via AIRCR.SYSRESETREQ.
T1D00 000:745.090   CPU is running
T1D00 000:745.100   CPU_WriteMem(4 bytes @ 0xE000ED0C)
T1D00 000:797.471   CPU_ReadMem(4 bytes @ 0xE000EDF0)
T1D00 000:797.759   CPU_ReadMem(4 bytes @ 0xE000EDF0)
T1D00 000:798.001   CPU is running
T1D00 000:798.015   CPU_WriteMem(4 bytes @ 0xE000EDF0)
T1D00 000:798.259   CPU is running
T1D00 000:798.271   CPU_WriteMem(4 bytes @ 0xE000EDFC)
T1D00 000:804.220   CPU_ReadMem(4 bytes @ 0xE000EDF0)
T1D00 000:805.385   CPU_WriteMem(4 bytes @ 0xE0002000)
T1D00 000:805.519   CPU_ReadMem(4 bytes @ 0xE000EDFC)
T1D00 000:805.751   CPU_ReadMem(4 bytes @ 0xE0001000)
T1D00 000:806.001 - 74.064ms
T1D00 000:806.040 JLINK_Halt()
T1D00 000:806.046 - 0.009ms returns 0x00
T1D00 000:806.054 JLINK_IsHalted()
T1D00 000:806.064 - 0.012ms returns TRUE
T1D00 000:806.071 JLINK_ReadMemU32(0xE000EDF0, 0x1 Items)
T1D00 000:806.082   CPU_ReadMem(4 bytes @ 0xE000EDF0)
T1D00 000:806.254   Data:  03 00 03 00
T1D00 000:806.267   Debug reg: DHCSR
T1D00 000:806.276 - 0.208ms returns 1 (0x1)
T1D00 000:806.290 JLINK_WriteU32_64(0xE000EDF0, 0xA05F0003)
T1D00 000:806.298   Debug reg: DHCSR
T1D00 000:806.526   CPU_WriteMem(4 bytes @ 0xE000EDF0)
T1D00 000:806.654 - 0.371ms returns 0 (0x00000000)
T1D00 000:806.668 JLINK_WriteU32_64(0xE000EDFC, 0x01000000)
T1D00 000:806.675   Debug reg: DEMCR
T1D00 000:806.689   CPU_WriteMem(4 bytes @ 0xE000EDFC)
T1D00 000:806.887 - 0.226ms returns 0 (0x00000000)
T1D00 000:829.313 JLINK_GetHWStatus(...)
T1D00 000:829.438 - 0.131ms returns 0
T1D00 000:846.012 JLINK_GetNumBPUnits(Type = 0xFFFFFF00)
T1D00 000:846.032 - 0.024ms returns 0x06
T1D00 000:846.040 JLINK_GetNumBPUnits(Type = 0xF0)
T1D00 000:846.047 - 0.009ms returns 0x2000
T1D00 000:846.055 JLINK_GetNumWPUnits()
T1D00 000:846.060 - 0.008ms returns 4
T1D00 000:862.989 JLINK_GetSpeed()
T1D00 000:863.011 - 0.025ms returns 15000
T1D00 000:874.061 JLINK_ReadMemU32(0xE000E004, 0x1 Items)
T1D00 000:874.095   CPU_ReadMem(4 bytes @ 0xE000E004)
T1D00 000:874.249   Data:  01 00 00 00
T1D00 000:874.268 - 0.209ms returns 1 (0x1)
T1D00 000:874.280 JLINK_ReadMemU32(0xE000E004, 0x1 Items)
T1D00 000:874.295   CPU_ReadMem(4 bytes @ 0xE000E004)
T1D00 000:874.418   Data:  01 00 00 00
T1D00 000:874.427 - 0.149ms returns 1 (0x1)
T1D00 000:874.435 JLINK_WriteMem(0xE0001000, 0x1C Bytes, ...)
T1D00 000:874.441   Data:  01 00 00 00 00 00 00 00 00 00 00 00 00 00 00 00 ...
T1D00 000:874.455   CPU_WriteMem(28 bytes @ 0xE0001000)
T1D00 000:874.759 - 0.331ms returns 0x1C
T1D00 000:874.773 JLINK_ReadMem(0xE0001000, 0x1C Bytes, ...)
T1D00 000:874.783   CPU_ReadMem(28 bytes @ 0xE0001000)
T1D00 000:874.950   Data:  01 00 00 40 00 00 00 00 00 00 00 00 00 00 00 00 ...
T1D00 000:874.963 - 0.192ms returns 0
T1D00 000:874.980 JLINK_Halt()
T1D00 000:874.986 - 0.009ms returns 0x00
T1D00 000:874.994 JLINK_IsHalted()
T1D00 000:875.000 - 0.009ms returns TRUE
T1D00 000:878.427 JLINK_WriteMem(0x20000000, 0x164 Bytes, ...)
T1D00 000:878.437   Data:  00 BE 0A E0 0D 78 2D 06 68 40 08 24 40 00 00 D3 ...
T1D00 000:878.683   CPU_WriteMem(356 bytes @ 0x20000000)
T1D00 000:879.231 - 0.810ms returns 0x164
T1D00 000:879.259 JLINK_HasError()
T1D00 000:879.267 JLINK_WriteReg(R0, 0x08000000)
T1D00 000:879.276 - 0.012ms returns 0
T1D00 000:879.285 JLINK_WriteReg(R1, 0x00B71B00)
T1D00 000:879.292 - 0.009ms returns 0
T1D00 000:879.299 JLINK_WriteReg(R2, 0x00000001)
T1D00 000:879.305 - 0.009ms returns 0
T1D00 000:879.312 JLINK_WriteReg(R3, 0x00000000)
T1D00 000:879.318 - 0.009ms returns 0
T1D00 000:879.326 JLINK_WriteReg(R4, 0x00000000)
T1D00 000:879.332 - 0.009ms returns 0
T1D00 000:879.339 JLINK_WriteReg(R5, 0x00000000)
T1D00 000:879.346 - 0.009ms returns 0
T1D00 000:879.353 JLINK_WriteReg(R6, 0x00000000)
T1D00 000:879.359 - 0.008ms returns 0
T1D00 000:879.366 JLINK_WriteReg(R7, 0x00000000)
T1D00 000:879.372 - 0.008ms returns 0
T1D00 000:879.380 JLINK_WriteReg(R8, 0x00000000)
T1D00 000:879.391 - 0.013ms returns 0
T1D00 000:879.398 JLINK_WriteReg(R9, 0x20000160)
T1D00 000:879.405 - 0.009ms returns 0
T1D00 000:879.411 JLINK_WriteReg(R10, 0x00000000)
T1D00 000:879.418 - 0.009ms returns 0
T1D00 000:879.424 JLINK_WriteReg(R11, 0x00000000)
T1D00 000:879.431 - 0.009ms returns 0
T1D00 000:879.438 JLINK_WriteReg(R12, 0x00000000)
T1D00 000:879.444 - 0.009ms returns 0
T1D00 000:879.451 JLINK_WriteReg(R13 (SP), 0x20001000)
T1D00 000:879.459 - 0.010ms returns 0
T1D00 000:879.466 JLINK_WriteReg(R14, 0x20000001)
T1D00 000:879.472 - 0.009ms returns 0
T1D00 000:879.479 JLINK_WriteReg(R15 (PC), 0x20000038)
T1D00 000:879.492 - 0.017ms returns 0
T1D00 000:879.501 JLINK_WriteReg(XPSR, 0x01000000)
T1D00 000:879.507 - 0.009ms returns 0
T1D00 000:879.514 JLINK_WriteReg(MSP, 0x20001000)
T1D00 000:879.521 - 0.009ms returns 0
T1D00 000:879.528 JLINK_WriteReg(PSP, 0x20001000)
T1D00 000:879.534 - 0.009ms returns 0
T1D00 000:879.542 JLINK_WriteReg(CFBP, 0x00000000)
T1D00 000:879.548 - 0.009ms returns 0
T1D00 000:879.556 JLINK_SetBPEx(Addr = 0x20000000, Type = 0xFFFFFFF2)
T1D00 000:879.565   CPU_ReadMem(2 bytes @ 0x20000000)
T1D00 000:879.729 - 0.181ms returns 0x00000001
T1D00 000:879.744 JLINK_Go()
T1D00 000:879.753   CPU_WriteMem(2 bytes @ 0x20000000)
T1D00 000:879.909   CPU_ReadMem(4 bytes @ 0xE0001000)
T1D00 000:880.139   CPU_WriteMem(4 bytes @ 0xE0002008)
T1D00 000:880.156   CPU_WriteMem(4 bytes @ 0xE000200C)
T1D00 000:880.165   CPU_WriteMem(4 bytes @ 0xE0002010)
T1D00 000:880.173   CPU_WriteMem(4 bytes @ 0xE0002014)
T1D00 000:880.182   CPU_WriteMem(4 bytes @ 0xE0002018)
T1D00 000:880.190   CPU_WriteMem(4 bytes @ 0xE000201C)
T1D00 000:880.749   CPU_WriteMem(4 bytes @ 0xE0001004)
T1D00 000:881.923 - 2.186ms
T1D00 000:881.940 JLINK_IsHalted()
T1D00 000:883.022   CPU_ReadMem(2 bytes @ 0x20000000)
T1D00 000:883.146 - 1.212ms returns TRUE
T1D00 000:883.161 JLINK_ReadReg(R15 (PC))
T1D00 000:883.169 - 0.012ms returns 0x20000000
T1D00 000:883.178 JLINK_ClrBPEx(BPHandle = 0x00000001)
T1D00 000:883.185 - 0.009ms returns 0x00
T1D00 000:883.194 JLINK_ReadReg(R0)
T1D00 000:883.201 - 0.010ms returns 0x00000000
T1D00 000:883.597 JLINK_HasError()
T1D00 000:883.608 JLINK_WriteReg(R0, 0x08000000)
T1D00 000:883.616 - 0.010ms returns 0
T1D00 000:883.623 JLINK_WriteReg(R1, 0x00B71B00)
T1D00 000:883.629 - 0.009ms returns 0
T1D00 000:883.636 JLINK_WriteReg(R2, 0x00000001)
T1D00 000:883.642 - 0.008ms returns 0
T1D00 000:883.649 JLINK_WriteReg(R3, 0x00000000)
T1D00 000:883.655 - 0.008ms returns 0
T1D00 000:883.662 JLINK_WriteReg(R4, 0x00000000)
T1D00 000:883.667 - 0.008ms returns 0
T1D00 000:883.674 JLINK_WriteReg(R5, 0x00000000)
T1D00 000:883.680 - 0.008ms returns 0
T1D00 000:883.687 JLINK_WriteReg(R6, 0x00000000)
T1D00 000:883.692 - 0.008ms returns 0
T1D00 000:883.699 JLINK_WriteReg(R7, 0x00000000)
T1D00 000:883.705 - 0.008ms returns 0
T1D00 000:883.712 JLINK_WriteReg(R8, 0x00000000)
T1D00 000:883.718 - 0.008ms returns 0
T1D00 000:883.724 JLINK_WriteReg(R9, 0x20000160)
T1D00 000:883.730 - 0.008ms returns 0
T1D00 000:883.737 JLINK_WriteReg(R10, 0x00000000)
T1D00 000:883.743 - 0.008ms returns 0
T1D00 000:883.750 JLINK_WriteReg(R11, 0x00000000)
T1D00 000:883.756 - 0.008ms returns 0
T1D00 000:883.763 JLINK_WriteReg(R12, 0x00000000)
T1D00 000:883.769 - 0.008ms returns 0
T1D00 000:883.775 JLINK_WriteReg(R13 (SP), 0x20001000)
T1D00 000:883.781 - 0.008ms returns 0
T1D00 000:883.788 JLINK_WriteReg(R14, 0x20000001)
T1D00 000:883.794 - 0.008ms returns 0
T1D00 000:883.801 JLINK_WriteReg(R15 (PC), 0x2000007C)
T1D00 000:883.807 - 0.008ms returns 0
T1D00 000:883.813 JLINK_WriteReg(XPSR, 0x01000000)
T1D00 000:883.820 - 0.009ms returns 0
T1D00 000:883.826 JLINK_WriteReg(MSP, 0x20001000)
T1D00 000:883.832 - 0.008ms returns 0
T1D00 000:883.839 JLINK_WriteReg(PSP, 0x20001000)
T1D00 000:883.845 - 0.008ms returns 0
T1D00 000:883.851 JLINK_WriteReg(CFBP, 0x00000000)
T1D00 000:883.857 - 0.008ms returns 0
T1D00 000:883.864 JLINK_SetBPEx(Addr = 0x20000000, Type = 0xFFFFFFF2)
T1D00 000:883.870 - 0.009ms returns 0x00000002
T1D00 000:883.877 JLINK_Go()
T1D00 000:883.889   CPU_ReadMem(4 bytes @ 0xE0001000)
T1D00 000:885.053 - 1.183ms
T1D00 000:885.067 JLINK_IsHalted()
T1D00 000:885.262 - 0.202ms returns FALSE
T1D00 000:885.276 JLINK_HasError()
T1D00 000:906.319 JLINK_IsHalted()
T1D00 000:906.477 - 0.174ms returns FALSE
T1D00 000:906.502 JLINK_HasError()
T1D00 000:909.318 JLINK_IsHalted()
T1D00 000:910.270   CPU_ReadMem(2 bytes @ 0x20000000)
T1D00 000:910.402 - 1.092ms returns TRUE
T1D00 000:910.418 JLINK_ReadReg(R15 (PC))
T1D00 000:910.428 - 0.013ms returns 0x20000000
T1D00 000:910.436 JLINK_ClrBPEx(BPHandle = 0x00000002)
T1D00 000:910.488 - 0.055ms returns 0x00
T1D00 000:910.496 JLINK_ReadReg(R0)
T1D00 000:910.502 - 0.009ms returns 0x00000000
T1D00 000:962.791 JLINK_HasError()
T1D00 000:962.811 JLINK_WriteReg(R0, 0x00000001)
T1D00 000:962.822 - 0.014ms returns 0
T1D00 000:962.830 JLINK_WriteReg(R1, 0x00B71B00)
T1D00 000:962.836 - 0.009ms returns 0
T1D00 000:962.843 JLINK_WriteReg(R2, 0x00000001)
T1D00 000:962.849 - 0.008ms returns 0
T1D00 000:962.856 JLINK_WriteReg(R3, 0x00000000)
T1D00 000:962.861 - 0.008ms returns 0
T1D00 000:962.868 JLINK_WriteReg(R4, 0x00000000)
T1D00 000:962.874 - 0.008ms returns 0
T1D00 000:962.881 JLINK_WriteReg(R5, 0x00000000)
T1D00 000:962.887 - 0.008ms returns 0
T1D00 000:962.893 JLINK_WriteReg(R6, 0x00000000)
T1D00 000:962.899 - 0.008ms returns 0
T1D00 000:962.906 JLINK_WriteReg(R7, 0x00000000)
T1D00 000:962.912 - 0.008ms returns 0
T1D00 000:962.918 JLINK_WriteReg(R8, 0x00000000)
T1D00 000:962.924 - 0.008ms returns 0
T1D00 000:962.931 JLINK_WriteReg(R9, 0x20000160)
T1D00 000:962.937 - 0.008ms returns 0
T1D00 000:962.944 JLINK_WriteReg(R10, 0x00000000)
T1D00 000:962.949 - 0.008ms returns 0
T1D00 000:962.956 JLINK_WriteReg(R11, 0x00000000)
T1D00 000:962.962 - 0.008ms returns 0
T1D00 000:962.969 JLINK_WriteReg(R12, 0x00000000)
T1D00 000:962.975 - 0.008ms returns 0
T1D00 000:962.982 JLINK_WriteReg(R13 (SP), 0x20001000)
T1D00 000:962.988 - 0.009ms returns 0
T1D00 000:962.995 JLINK_WriteReg(R14, 0x20000001)
T1D00 000:963.002 - 0.010ms returns 0
T1D00 000:963.009 JLINK_WriteReg(R15 (PC), 0x2000006A)
T1D00 000:963.015 - 0.009ms returns 0
T1D00 000:963.022 JLINK_WriteReg(XPSR, 0x01000000)
T1D00 000:963.028 - 0.008ms returns 0
T1D00 000:963.035 JLINK_WriteReg(MSP, 0x20001000)
T1D00 000:963.042 - 0.009ms returns 0
T1D00 000:963.048 JLINK_WriteReg(PSP, 0x20001000)
T1D00 000:963.054 - 0.008ms returns 0
T1D00 000:963.061 JLINK_WriteReg(CFBP, 0x00000000)
T1D00 000:963.067 - 0.008ms returns 0
T1D00 000:963.074 JLINK_SetBPEx(Addr = 0x20000000, Type = 0xFFFFFFF2)
T1D00 000:963.082 - 0.010ms returns 0x00000003
T1D00 000:963.089 JLINK_Go()
T1D00 000:963.106   CPU_ReadMem(4 bytes @ 0xE0001000)
T1D00 000:964.187 - 1.113ms
T1D00 000:964.212 JLINK_IsHalted()
T1D00 000:965.277   CPU_ReadMem(2 bytes @ 0x20000000)
T1D00 000:965.405 - 1.200ms returns TRUE
T1D00 000:965.419 JLINK_ReadReg(R15 (PC))
T1D00 000:965.427 - 0.011ms returns 0x20000000
T1D00 000:965.434 JLINK_ClrBPEx(BPHandle = 0x00000003)
T1D00 000:965.440 - 0.009ms returns 0x00
T1D00 000:965.447 JLINK_ReadReg(R0)
T1D00 000:965.454 - 0.009ms returns 0x00000000
T1D00 000:974.448 JLINK_WriteMem(0x20000000, 0x164 Bytes, ...)
T1D00 000:974.458   Data:  00 BE 0A E0 0D 78 2D 06 68 40 08 24 40 00 00 D3 ...
T1D00 000:974.474   CPU_WriteMem(356 bytes @ 0x20000000)
T1D00 000:975.028 - 0.588ms returns 0x164
T1D00 000:975.067 JLINK_HasError()
T1D00 000:975.075 JLINK_WriteReg(R0, 0x08000000)
T1D00 000:975.084 - 0.011ms returns 0
T1D00 000:975.091 JLINK_WriteReg(R1, 0x00B71B00)
T1D00 000:975.097 - 0.009ms returns 0
T1D00 000:975.104 JLINK_WriteReg(R2, 0x00000002)
T1D00 000:975.110 - 0.009ms returns 0
T1D00 000:975.117 JLINK_WriteReg(R3, 0x00000000)
T1D00 000:975.123 - 0.008ms returns 0
T1D00 000:975.130 JLINK_WriteReg(R4, 0x00000000)
T1D00 000:975.136 - 0.009ms returns 0
T1D00 000:975.143 JLINK_WriteReg(R5, 0x00000000)
T1D00 000:975.149 - 0.008ms returns 0
T1D00 000:975.155 JLINK_WriteReg(R6, 0x00000000)
T1D00 000:975.162 - 0.009ms returns 0
T1D00 000:975.169 JLINK_WriteReg(R7, 0x00000000)
T1D00 000:975.175 - 0.008ms returns 0
T1D00 000:975.181 JLINK_WriteReg(R8, 0x00000000)
T1D00 000:975.187 - 0.008ms returns 0
T1D00 000:975.194 JLINK_WriteReg(R9, 0x20000160)
T1D00 000:975.200 - 0.008ms returns 0
T1D00 000:975.207 JLINK_WriteReg(R10, 0x00000000)
T1D00 000:975.213 - 0.009ms returns 0
T1D00 000:975.221 JLINK_WriteReg(R11, 0x00000000)
T1D00 000:975.227 - 0.009ms returns 0
T1D00 000:975.234 JLINK_WriteReg(R12, 0x00000000)
T1D00 000:975.240 - 0.009ms returns 0
T1D00 000:975.247 JLINK_WriteReg(R13 (SP), 0x20001000)
T1D00 000:975.259 - 0.015ms returns 0
T1D00 000:975.266 JLINK_WriteReg(R14, 0x20000001)
T1D00 000:975.272 - 0.008ms returns 0
T1D00 000:975.279 JLINK_WriteReg(R15 (PC), 0x20000038)
T1D00 000:975.285 - 0.009ms returns 0
T1D00 000:975.292 JLINK_WriteReg(XPSR, 0x01000000)
T1D00 000:975.298 - 0.009ms returns 0
T1D00 000:975.305 JLINK_WriteReg(MSP, 0x20001000)
T1D00 000:975.311 - 0.008ms returns 0
T1D00 000:975.318 JLINK_WriteReg(PSP, 0x20001000)
T1D00 000:975.324 - 0.008ms returns 0
T1D00 000:975.331 JLINK_WriteReg(CFBP, 0x00000000)
T1D00 000:975.337 - 0.008ms returns 0
T1D00 000:975.344 JLINK_SetBPEx(Addr = 0x20000000, Type = 0xFFFFFFF2)
T1D00 000:975.353   CPU_ReadMem(2 bytes @ 0x20000000)
T1D00 000:975.477 - 0.140ms returns 0x00000004
T1D00 000:975.490 JLINK_Go()
T1D00 000:975.498   CPU_WriteMem(2 bytes @ 0x20000000)
T1D00 000:975.664   CPU_ReadMem(4 bytes @ 0xE0001000)
T1D00 000:976.974 - 1.492ms
T1D00 000:976.989 JLINK_IsHalted()
T1D00 000:978.037   CPU_ReadMem(2 bytes @ 0x20000000)
T1D00 000:978.164 - 1.181ms returns TRUE
T1D00 000:978.177 JLINK_ReadReg(R15 (PC))
T1D00 000:978.185 - 0.011ms returns 0x20000000
T1D00 000:978.193 JLINK_ClrBPEx(BPHandle = 0x00000004)
T1D00 000:978.199 - 0.009ms returns 0x00
T1D00 000:978.206 JLINK_ReadReg(R0)
T1D00 000:978.212 - 0.009ms returns 0x00000000
T1D00 000:978.574 JLINK_WriteMem(0x20000164, 0x400 Bytes, ...)
T1D00 000:978.585   Data:  08 09 00 20 2D 02 00 08 2F 57 00 08 57 0C 00 08 ...
T1D00 000:978.602   CPU_WriteMem(1024 bytes @ 0x20000164)
T1D00 000:979.966 - 1.398ms returns 0x400
T1D00 000:979.979 JLINK_HasError()
T1D00 000:979.987 JLINK_WriteReg(R0, 0x08000000)
T1D00 000:979.997 - 0.013ms returns 0
T1D00 000:980.004 JLINK_WriteReg(R1, 0x00000400)
T1D00 000:980.010 - 0.008ms returns 0
T1D00 000:980.017 JLINK_WriteReg(R2, 0x20000164)
T1D00 000:980.023 - 0.008ms returns 0
T1D00 000:980.030 JLINK_WriteReg(R3, 0x00000000)
T1D00 000:980.036 - 0.008ms returns 0
T1D00 000:980.043 JLINK_WriteReg(R4, 0x00000000)
T1D00 000:980.049 - 0.008ms returns 0
T1D00 000:980.055 JLINK_WriteReg(R5, 0x00000000)
T1D00 000:980.061 - 0.008ms returns 0
T1D00 000:980.068 JLINK_WriteReg(R6, 0x00000000)
T1D00 000:980.074 - 0.008ms returns 0
T1D00 000:980.081 JLINK_WriteReg(R7, 0x00000000)
T1D00 000:980.087 - 0.008ms returns 0
T1D00 000:980.093 JLINK_WriteReg(R8, 0x00000000)
T1D00 000:980.099 - 0.008ms returns 0
T1D00 000:980.106 JLINK_WriteReg(R9, 0x20000160)
T1D00 000:980.112 - 0.009ms returns 0
T1D00 000:980.119 JLINK_WriteReg(R10, 0x00000000)
T1D00 000:980.125 - 0.009ms returns 0
T1D00 000:980.132 JLINK_WriteReg(R11, 0x00000000)
T1D00 000:980.138 - 0.009ms returns 0
T1D00 000:980.144 JLINK_WriteReg(R12, 0x00000000)
T1D00 000:980.150 - 0.008ms returns 0
T1D00 000:980.157 JLINK_WriteReg(R13 (SP), 0x20001000)
T1D00 000:980.164 - 0.009ms returns 0
T1D00 000:980.171 JLINK_WriteReg(R14, 0x20000001)
T1D00 000:980.177 - 0.008ms returns 0
T1D00 000:980.183 JLINK_WriteReg(R15 (PC), 0x200000F4)
T1D00 000:980.189 - 0.008ms returns 0
T1D00 000:980.196 JLINK_WriteReg(XPSR, 0x01000000)
T1D00 000:980.202 - 0.008ms returns 0
T1D00 000:980.209 JLINK_WriteReg(MSP, 0x20001000)
T1D00 000:980.215 - 0.008ms returns 0
T1D00 000:980.221 JLINK_WriteReg(PSP, 0x20001000)
T1D00 000:980.227 - 0.009ms returns 0
T1D00 000:980.234 JLINK_WriteReg(CFBP, 0x00000000)
T1D00 000:980.240 - 0.008ms returns 0
T1D00 000:980.246 JLINK_SetBPEx(Addr = 0x20000000, Type = 0xFFFFFFF2)
T1D00 000:980.253 - 0.009ms returns 0x00000005
T1D00 000:980.260 JLINK_Go()
T1D00 000:980.271   CPU_ReadMem(4 bytes @ 0xE0001000)
T1D00 000:981.439 - 1.188ms
T1D00 000:981.455 JLINK_IsHalted()
T1D00 000:981.648 - 0.199ms returns FALSE
T1D00 000:981.660 JLINK_HasError()
T1D00 000:987.389 JLINK_IsHalted()
T1D00 000:987.524 - 0.141ms returns FALSE
T1D00 000:987.537 JLINK_HasError()
T1D00 000:989.394 JLINK_IsHalted()
T1D00 000:989.525 - 0.137ms returns FALSE
T1D00 000:989.537 JLINK_HasError()
T1D00 000:991.392 JLINK_IsHalted()
T1D00 000:991.544 - 0.165ms returns FALSE
T1D00 000:991.569 JLINK_HasError()
T1D00 000:993.395 JLINK_IsHalted()
T1D00 000:993.541 - 0.153ms returns FALSE
T1D00 000:993.555 JLINK_HasError()
T1D00 000:995.397 JLINK_IsHalted()
T1D00 000:995.536 - 0.145ms returns FALSE
T1D00 000:995.548 JLINK_HasError()
T1D00 000:997.398 JLINK_IsHalted()
T1D00 000:997.553 - 0.161ms returns FALSE
T1D00 000:997.566 JLINK_HasError()
T1D00 000:999.399 JLINK_IsHalted()
T1D00 000:999.537 - 0.142ms returns FALSE
T1D00 000:999.547 JLINK_HasError()
T1D00 001:001.402 JLINK_IsHalted()
T1D00 001:001.538 - 0.142ms returns FALSE
T1D00 001:001.550 JLINK_HasError()
T1D00 001:003.404 JLINK_IsHalted()
T1D00 001:003.535 - 0.139ms returns FALSE
T1D00 001:003.550 JLINK_HasError()
T1D00 001:005.406 JLINK_IsHalted()
T1D00 001:005.544 - 0.144ms returns FALSE
T1D00 001:005.556 JLINK_HasError()
T1D00 001:007.406 JLINK_IsHalted()
T1D00 001:007.542 - 0.140ms returns FALSE
T1D00 001:007.555 JLINK_HasError()
T1D00 001:009.409 JLINK_IsHalted()
T1D00 001:009.542 - 0.140ms returns FALSE
T1D00 001:009.555 JLINK_HasError()
T1D00 001:011.411 JLINK_IsHalted()
T1D00 001:011.546 - 0.143ms returns FALSE
T1D00 001:011.560 JLINK_HasError()
T1D00 001:013.413 JLINK_IsHalted()
T1D00 001:014.408   CPU_ReadMem(2 bytes @ 0x20000000)
T1D00 001:014.544 - 1.137ms returns TRUE
T1D00 001:014.557 JLINK_ReadReg(R15 (PC))
T1D00 001:014.566 - 0.011ms returns 0x20000000
T1D00 001:014.573 JLINK_ClrBPEx(BPHandle = 0x00000005)
T1D00 001:014.580 - 0.009ms returns 0x00
T1D00 001:014.587 JLINK_ReadReg(R0)
T1D00 001:014.593 - 0.009ms returns 0x00000000
T1D00 001:015.215 JLINK_WriteMem(0x20000164, 0x400 Bytes, ...)
T1D00 001:015.227   Data:  02 E0 0E 4A 7A 44 0E 32 00 21 04 F1 24 03 05 E0 ...
T1D00 001:015.246   CPU_WriteMem(1024 bytes @ 0x20000164)
T1D00 001:016.615 - 1.407ms returns 0x400
T1D00 001:016.630 JLINK_HasError()
T1D00 001:016.637 JLINK_WriteReg(R0, 0x08000400)
T1D00 001:016.646 - 0.011ms returns 0
T1D00 001:016.653 JLINK_WriteReg(R1, 0x00000400)
T1D00 001:016.659 - 0.008ms returns 0
T1D00 001:016.666 JLINK_WriteReg(R2, 0x20000164)
T1D00 001:016.672 - 0.008ms returns 0
T1D00 001:016.679 JLINK_WriteReg(R3, 0x00000000)
T1D00 001:016.685 - 0.008ms returns 0
T1D00 001:016.691 JLINK_WriteReg(R4, 0x00000000)
T1D00 001:016.697 - 0.008ms returns 0
T1D00 001:016.704 JLINK_WriteReg(R5, 0x00000000)
T1D00 001:016.710 - 0.008ms returns 0
T1D00 001:016.717 JLINK_WriteReg(R6, 0x00000000)
T1D00 001:016.723 - 0.008ms returns 0
T1D00 001:016.730 JLINK_WriteReg(R7, 0x00000000)
T1D00 001:016.736 - 0.008ms returns 0
T1D00 001:016.742 JLINK_WriteReg(R8, 0x00000000)
T1D00 001:016.748 - 0.008ms returns 0
T1D00 001:016.755 JLINK_WriteReg(R9, 0x20000160)
T1D00 001:016.761 - 0.009ms returns 0
T1D00 001:016.768 JLINK_WriteReg(R10, 0x00000000)
T1D00 001:016.774 - 0.008ms returns 0
T1D00 001:016.781 JLINK_WriteReg(R11, 0x00000000)
T1D00 001:016.787 - 0.008ms returns 0
T1D00 001:016.793 JLINK_WriteReg(R12, 0x00000000)
T1D00 001:016.799 - 0.008ms returns 0
T1D00 001:016.806 JLINK_WriteReg(R13 (SP), 0x20001000)
T1D00 001:016.812 - 0.009ms returns 0
T1D00 001:016.819 JLINK_WriteReg(R14, 0x20000001)
T1D00 001:016.825 - 0.008ms returns 0
T1D00 001:016.832 JLINK_WriteReg(R15 (PC), 0x200000F4)
T1D00 001:016.838 - 0.008ms returns 0
T1D00 001:016.844 JLINK_WriteReg(XPSR, 0x01000000)
T1D00 001:016.850 - 0.008ms returns 0
T1D00 001:016.857 JLINK_WriteReg(MSP, 0x20001000)
T1D00 001:016.863 - 0.008ms returns 0
T1D00 001:016.870 JLINK_WriteReg(PSP, 0x20001000)
T1D00 001:016.876 - 0.008ms returns 0
T1D00 001:016.882 JLINK_WriteReg(CFBP, 0x00000000)
T1D00 001:016.888 - 0.008ms returns 0
T1D00 001:016.895 JLINK_SetBPEx(Addr = 0x20000000, Type = 0xFFFFFFF2)
T1D00 001:016.902 - 0.009ms returns 0x00000006
T1D00 001:016.909 JLINK_Go()
T1D00 001:016.921   CPU_ReadMem(4 bytes @ 0xE0001000)
T1D00 001:018.069 - 1.167ms
T1D00 001:018.083 JLINK_IsHalted()
T1D00 001:018.281 - 0.204ms returns FALSE
T1D00 001:018.293 JLINK_HasError()
T1D00 001:019.974 JLINK_IsHalted()
T1D00 001:020.097 - 0.134ms returns FALSE
T1D00 001:020.116 JLINK_HasError()
T1D00 001:021.976 JLINK_IsHalted()
T1D00 001:022.099 - 0.126ms returns FALSE
T1D00 001:022.108 JLINK_HasError()
T1D00 001:023.976 JLINK_IsHalted()
T1D00 001:024.111 - 0.142ms returns FALSE
T1D00 001:024.125 JLINK_HasError()
T1D00 001:025.980 JLINK_IsHalted()
T1D00 001:026.115 - 0.142ms returns FALSE
T1D00 001:026.129 JLINK_HasError()
T1D00 001:027.986 JLINK_IsHalted()
T1D00 001:028.108 - 0.128ms returns FALSE
T1D00 001:028.120 JLINK_HasError()
T1D00 001:029.986 JLINK_IsHalted()
T1D00 001:030.115 - 0.137ms returns FALSE
T1D00 001:030.130 JLINK_HasError()
T1D00 001:031.986 JLINK_IsHalted()
T1D00 001:032.112 - 0.132ms returns FALSE
T1D00 001:032.125 JLINK_HasError()
T1D00 001:033.987 JLINK_IsHalted()
T1D00 001:034.114 - 0.133ms returns FALSE
T1D00 001:034.127 JLINK_HasError()
T1D00 001:035.991 JLINK_IsHalted()
T1D00 001:036.115 - 0.130ms returns FALSE
T1D00 001:036.127 JLINK_HasError()
T1D00 001:037.992 JLINK_IsHalted()
T1D00 001:038.121 - 0.136ms returns FALSE
T1D00 001:038.135 JLINK_HasError()
T1D00 001:039.992 JLINK_IsHalted()
T1D00 001:040.134 - 0.148ms returns FALSE
T1D00 001:040.148 JLINK_HasError()
T1D00 001:041.994 JLINK_IsHalted()
T1D00 001:042.119 - 0.131ms returns FALSE
T1D00 001:042.131 JLINK_HasError()
T1D00 001:043.999 JLINK_IsHalted()
T1D00 001:044.127 - 0.134ms returns FALSE
T1D00 001:044.140 JLINK_HasError()
T1D00 001:045.997 JLINK_IsHalted()
T1D00 001:046.119 - 0.129ms returns FALSE
T1D00 001:046.134 JLINK_HasError()
T1D00 001:047.999 JLINK_IsHalted()
T1D00 001:048.122 - 0.126ms returns FALSE
T1D00 001:048.131 JLINK_HasError()
T1D00 001:050.001 JLINK_IsHalted()
T1D00 001:050.926   CPU_ReadMem(2 bytes @ 0x20000000)
T1D00 001:051.044 - 1.047ms returns TRUE
T1D00 001:051.054 JLINK_ReadReg(R15 (PC))
T1D00 001:051.063 - 0.011ms returns 0x20000000
T1D00 001:051.070 JLINK_ClrBPEx(BPHandle = 0x00000006)
T1D00 001:051.076 - 0.009ms returns 0x00
T1D00 001:051.083 JLINK_ReadReg(R0)
T1D00 001:051.089 - 0.008ms returns 0x00000000
T1D00 001:051.781 JLINK_WriteMem(0x20000164, 0x400 Bytes, ...)
T1D00 001:051.792   Data:  10 BD 12 78 00 F1 24 01 0A 70 00 22 4A 70 01 22 ...
T1D00 001:051.810   CPU_WriteMem(1024 bytes @ 0x20000164)
T1D00 001:053.177 - 1.403ms returns 0x400
T1D00 001:053.192 JLINK_HasError()
T1D00 001:053.201 JLINK_WriteReg(R0, 0x08000800)
T1D00 001:053.210 - 0.012ms returns 0
T1D00 001:053.218 JLINK_WriteReg(R1, 0x00000400)
T1D00 001:053.224 - 0.009ms returns 0
T1D00 001:053.231 JLINK_WriteReg(R2, 0x20000164)
T1D00 001:053.238 - 0.009ms returns 0
T1D00 001:053.245 JLINK_WriteReg(R3, 0x00000000)
T1D00 001:053.252 - 0.009ms returns 0
T1D00 001:053.259 JLINK_WriteReg(R4, 0x00000000)
T1D00 001:053.265 - 0.009ms returns 0
T1D00 001:053.273 JLINK_WriteReg(R5, 0x00000000)
T1D00 001:053.279 - 0.009ms returns 0
T1D00 001:053.287 JLINK_WriteReg(R6, 0x00000000)
T1D00 001:053.298 - 0.016ms returns 0
T1D00 001:053.310 JLINK_WriteReg(R7, 0x00000000)
T1D00 001:053.317 - 0.010ms returns 0
T1D00 001:053.324 JLINK_WriteReg(R8, 0x00000000)
T1D00 001:053.330 - 0.009ms returns 0
T1D00 001:053.338 JLINK_WriteReg(R9, 0x20000160)
T1D00 001:053.344 - 0.009ms returns 0
T1D00 001:053.351 JLINK_WriteReg(R10, 0x00000000)
T1D00 001:053.357 - 0.009ms returns 0
T1D00 001:053.364 JLINK_WriteReg(R11, 0x00000000)
T1D00 001:053.370 - 0.009ms returns 0
T1D00 001:053.377 JLINK_WriteReg(R12, 0x00000000)
T1D00 001:053.383 - 0.009ms returns 0
T1D00 001:053.391 JLINK_WriteReg(R13 (SP), 0x20001000)
T1D00 001:053.397 - 0.009ms returns 0
T1D00 001:053.404 JLINK_WriteReg(R14, 0x20000001)
T1D00 001:053.411 - 0.010ms returns 0
T1D00 001:053.418 JLINK_WriteReg(R15 (PC), 0x200000F4)
T1D00 001:053.425 - 0.009ms returns 0
T1D00 001:053.432 JLINK_WriteReg(XPSR, 0x01000000)
T1D00 001:053.438 - 0.009ms returns 0
T1D00 001:053.446 JLINK_WriteReg(MSP, 0x20001000)
T1D00 001:053.453 - 0.009ms returns 0
T1D00 001:053.459 JLINK_WriteReg(PSP, 0x20001000)
T1D00 001:053.466 - 0.010ms returns 0
T1D00 001:053.473 JLINK_WriteReg(CFBP, 0x00000000)
T1D00 001:053.530 - 0.059ms returns 0
T1D00 001:053.538 JLINK_SetBPEx(Addr = 0x20000000, Type = 0xFFFFFFF2)
T1D00 001:053.545 - 0.010ms returns 0x00000007
T1D00 001:053.553 JLINK_Go()
T1D00 001:053.565   CPU_ReadMem(4 bytes @ 0xE0001000)
T1D00 001:054.693 - 1.148ms
T1D00 001:054.707 JLINK_IsHalted()
T1D00 001:054.912 - 0.212ms returns FALSE
T1D00 001:054.926 JLINK_HasError()
T1D00 001:056.007 JLINK_IsHalted()
T1D00 001:056.129 - 0.129ms returns FALSE
T1D00 001:056.143 JLINK_HasError()
T1D00 001:058.035 JLINK_IsHalted()
T1D00 001:058.167 - 0.138ms returns FALSE
T1D00 001:058.179 JLINK_HasError()
T1D00 001:060.011 JLINK_IsHalted()
T1D00 001:060.134 - 0.130ms returns FALSE
T1D00 001:060.147 JLINK_HasError()
T1D00 001:062.013 JLINK_IsHalted()
T1D00 001:062.139 - 0.132ms returns FALSE
T1D00 001:062.151 JLINK_HasError()
T1D00 001:064.011 JLINK_IsHalted()
T1D00 001:064.133 - 0.129ms returns FALSE
T1D00 001:064.148 JLINK_HasError()
T1D00 001:066.015 JLINK_IsHalted()
T1D00 001:066.137 - 0.127ms returns FALSE
T1D00 001:066.149 JLINK_HasError()
T1D00 001:068.018 JLINK_IsHalted()
T1D00 001:068.142 - 0.130ms returns FALSE
T1D00 001:068.154 JLINK_HasError()
T1D00 001:070.019 JLINK_IsHalted()
T1D00 001:070.147 - 0.135ms returns FALSE
T1D00 001:070.161 JLINK_HasError()
T1D00 001:072.023 JLINK_IsHalted()
T1D00 001:072.144 - 0.128ms returns FALSE
T1D00 001:072.156 JLINK_HasError()
T1D00 001:075.025 JLINK_IsHalted()
T1D00 001:075.148 - 0.127ms returns FALSE
T1D00 001:075.158 JLINK_HasError()
T1D00 001:077.027 JLINK_IsHalted()
T1D00 001:077.153 - 0.131ms returns FALSE
T1D00 001:077.165 JLINK_HasError()
T1D00 001:079.027 JLINK_IsHalted()
T1D00 001:079.147 - 0.127ms returns FALSE
T1D00 001:079.161 JLINK_HasError()
T1D00 001:081.061 JLINK_IsHalted()
T1D00 001:081.184 - 0.129ms returns FALSE
T1D00 001:081.196 JLINK_HasError()
T1D00 001:083.030 JLINK_IsHalted()
T1D00 001:083.148 - 0.126ms returns FALSE
T1D00 001:083.166 JLINK_HasError()
T1D00 001:085.032 JLINK_IsHalted()
T1D00 001:085.170 - 0.145ms returns FALSE
T1D00 001:085.184 JLINK_HasError()
T1D00 001:087.036 JLINK_IsHalted()
T1D00 001:088.058   CPU_ReadMem(2 bytes @ 0x20000000)
T1D00 001:088.177 - 1.146ms returns TRUE
T1D00 001:088.188 JLINK_ReadReg(R15 (PC))
T1D00 001:088.197 - 0.011ms returns 0x20000000
T1D00 001:088.204 JLINK_ClrBPEx(BPHandle = 0x00000007)
T1D00 001:088.210 - 0.009ms returns 0x00
T1D00 001:088.217 JLINK_ReadReg(R0)
T1D00 001:088.223 - 0.008ms returns 0x00000000
T1D00 001:088.802 JLINK_WriteMem(0x20000164, 0x400 Bytes, ...)
T1D00 001:088.812   Data:  05 F4 A1 43 41 F0 70 61 06 E0 46 0D 36 01 03 FA ...
T1D00 001:088.827   CPU_WriteMem(1024 bytes @ 0x20000164)
T1D00 001:090.178 - 1.382ms returns 0x400
T1D00 001:090.190 JLINK_HasError()
T1D00 001:090.198 JLINK_WriteReg(R0, 0x08000C00)
T1D00 001:090.205 - 0.010ms returns 0
T1D00 001:090.213 JLINK_WriteReg(R1, 0x00000400)
T1D00 001:090.219 - 0.009ms returns 0
T1D00 001:090.226 JLINK_WriteReg(R2, 0x20000164)
T1D00 001:090.232 - 0.009ms returns 0
T1D00 001:090.239 JLINK_WriteReg(R3, 0x00000000)
T1D00 001:090.245 - 0.008ms returns 0
T1D00 001:090.252 JLINK_WriteReg(R4, 0x00000000)
T1D00 001:090.258 - 0.008ms returns 0
T1D00 001:090.265 JLINK_WriteReg(R5, 0x00000000)
T1D00 001:090.271 - 0.008ms returns 0
T1D00 001:090.278 JLINK_WriteReg(R6, 0x00000000)
T1D00 001:090.284 - 0.009ms returns 0
T1D00 001:090.291 JLINK_WriteReg(R7, 0x00000000)
T1D00 001:090.297 - 0.008ms returns 0
T1D00 001:090.303 JLINK_WriteReg(R8, 0x00000000)
T1D00 001:090.309 - 0.009ms returns 0
T1D00 001:090.316 JLINK_WriteReg(R9, 0x20000160)
T1D00 001:090.322 - 0.008ms returns 0
T1D00 001:090.329 JLINK_WriteReg(R10, 0x00000000)
T1D00 001:090.335 - 0.009ms returns 0
T1D00 001:090.342 JLINK_WriteReg(R11, 0x00000000)
T1D00 001:090.348 - 0.008ms returns 0
T1D00 001:090.355 JLINK_WriteReg(R12, 0x00000000)
T1D00 001:090.361 - 0.008ms returns 0
T1D00 001:090.368 JLINK_WriteReg(R13 (SP), 0x20001000)
T1D00 001:090.374 - 0.009ms returns 0
T1D00 001:090.381 JLINK_WriteReg(R14, 0x20000001)
T1D00 001:090.437 - 0.058ms returns 0
T1D00 001:090.444 JLINK_WriteReg(R15 (PC), 0x200000F4)
T1D00 001:090.450 - 0.009ms returns 0
T1D00 001:090.457 JLINK_WriteReg(XPSR, 0x01000000)
T1D00 001:090.463 - 0.009ms returns 0
T1D00 001:090.470 JLINK_WriteReg(MSP, 0x20001000)
T1D00 001:090.476 - 0.008ms returns 0
T1D00 001:090.483 JLINK_WriteReg(PSP, 0x20001000)
T1D00 001:090.489 - 0.008ms returns 0
T1D00 001:090.496 JLINK_WriteReg(CFBP, 0x00000000)
T1D00 001:090.502 - 0.009ms returns 0
T1D00 001:090.509 JLINK_SetBPEx(Addr = 0x20000000, Type = 0xFFFFFFF2)
T1D00 001:090.516 - 0.009ms returns 0x00000008
T1D00 001:090.523 JLINK_Go()
T1D00 001:090.534   CPU_ReadMem(4 bytes @ 0xE0001000)
T1D00 001:091.577 - 1.062ms
T1D00 001:091.592 JLINK_IsHalted()
T1D00 001:091.791 - 0.206ms returns FALSE
T1D00 001:091.804 JLINK_HasError()
T1D00 001:093.040 JLINK_IsHalted()
T1D00 001:093.170 - 0.137ms returns FALSE
T1D00 001:093.185 JLINK_HasError()
T1D00 001:095.042 JLINK_IsHalted()
T1D00 001:095.170 - 0.134ms returns FALSE
T1D00 001:095.184 JLINK_HasError()
T1D00 001:097.045 JLINK_IsHalted()
T1D00 001:097.173 - 0.135ms returns FALSE
T1D00 001:097.188 JLINK_HasError()
T1D00 001:099.045 JLINK_IsHalted()
T1D00 001:099.171 - 0.129ms returns FALSE
T1D00 001:099.180 JLINK_HasError()
T1D00 001:101.047 JLINK_IsHalted()
T1D00 001:101.169 - 0.128ms returns FALSE
T1D00 001:101.182 JLINK_HasError()
T1D00 001:103.053 JLINK_IsHalted()
T1D00 001:103.180 - 0.134ms returns FALSE
T1D00 001:103.193 JLINK_HasError()
T1D00 001:105.050 JLINK_IsHalted()
T1D00 001:105.172 - 0.129ms returns FALSE
T1D00 001:105.186 JLINK_HasError()
T1D00 001:107.052 JLINK_IsHalted()
T1D00 001:107.172 - 0.125ms returns FALSE
T1D00 001:107.184 JLINK_HasError()
T1D00 001:109.054 JLINK_IsHalted()
T1D00 001:109.185 - 0.137ms returns FALSE
T1D00 001:109.197 JLINK_HasError()
T1D00 001:111.056 JLINK_IsHalted()
T1D00 001:111.181 - 0.132ms returns FALSE
T1D00 001:111.196 JLINK_HasError()
T1D00 001:113.058 JLINK_IsHalted()
T1D00 001:113.182 - 0.131ms returns FALSE
T1D00 001:113.196 JLINK_HasError()
T1D00 001:115.059 JLINK_IsHalted()
T1D00 001:115.186 - 0.134ms returns FALSE
T1D00 001:115.201 JLINK_HasError()
T1D00 001:117.063 JLINK_IsHalted()
T1D00 001:117.193 - 0.135ms returns FALSE
T1D00 001:117.205 JLINK_HasError()
T1D00 001:119.065 JLINK_IsHalted()
T1D00 001:119.192 - 0.133ms returns FALSE
T1D00 001:119.206 JLINK_HasError()
T1D00 001:121.065 JLINK_IsHalted()
T1D00 001:121.183 - 0.123ms returns FALSE
T1D00 001:121.196 JLINK_HasError()
T1D00 001:123.070 JLINK_IsHalted()
T1D00 001:124.059   CPU_ReadMem(2 bytes @ 0x20000000)
T1D00 001:124.182 - 1.118ms returns TRUE
T1D00 001:124.195 JLINK_ReadReg(R15 (PC))
T1D00 001:124.204 - 0.012ms returns 0x20000000
T1D00 001:124.212 JLINK_ClrBPEx(BPHandle = 0x00000008)
T1D00 001:124.218 - 0.009ms returns 0x00
T1D00 001:124.225 JLINK_ReadReg(R0)
T1D00 001:124.231 - 0.008ms returns 0x00000000
T1D00 001:124.947 JLINK_WriteMem(0x20000164, 0x400 Bytes, ...)
T1D00 001:124.959   Data:  36 48 80 88 41 F6 63 11 88 42 28 D1 33 48 80 79 ...
T1D00 001:124.978   CPU_WriteMem(1024 bytes @ 0x20000164)
T1D00 001:126.337 - 1.398ms returns 0x400
T1D00 001:126.353 JLINK_HasError()
T1D00 001:126.363 JLINK_WriteReg(R0, 0x08001000)
T1D00 001:126.374 - 0.015ms returns 0
T1D00 001:126.384 JLINK_WriteReg(R1, 0x00000400)
T1D00 001:126.392 - 0.012ms returns 0
T1D00 001:126.401 JLINK_WriteReg(R2, 0x20000164)
T1D00 001:126.409 - 0.011ms returns 0
T1D00 001:126.418 JLINK_WriteReg(R3, 0x00000000)
T1D00 001:126.426 - 0.011ms returns 0
T1D00 001:126.435 JLINK_WriteReg(R4, 0x00000000)
T1D00 001:126.443 - 0.011ms returns 0
T1D00 001:126.452 JLINK_WriteReg(R5, 0x00000000)
T1D00 001:126.459 - 0.011ms returns 0
T1D00 001:126.468 JLINK_WriteReg(R6, 0x00000000)
T1D00 001:126.476 - 0.011ms returns 0
T1D00 001:126.485 JLINK_WriteReg(R7, 0x00000000)
T1D00 001:126.493 - 0.011ms returns 0
T1D00 001:126.501 JLINK_WriteReg(R8, 0x00000000)
T1D00 001:126.509 - 0.011ms returns 0
T1D00 001:126.576 JLINK_WriteReg(R9, 0x20000160)
T1D00 001:126.586 - 0.013ms returns 0
T1D00 001:126.593 JLINK_WriteReg(R10, 0x00000000)
T1D00 001:126.599 - 0.008ms returns 0
T1D00 001:126.606 JLINK_WriteReg(R11, 0x00000000)
T1D00 001:126.612 - 0.009ms returns 0
T1D00 001:126.620 JLINK_WriteReg(R12, 0x00000000)
T1D00 001:126.626 - 0.008ms returns 0
T1D00 001:126.633 JLINK_WriteReg(R13 (SP), 0x20001000)
T1D00 001:126.640 - 0.010ms returns 0
T1D00 001:126.648 JLINK_WriteReg(R14, 0x20000001)
T1D00 001:126.654 - 0.009ms returns 0
T1D00 001:126.661 JLINK_WriteReg(R15 (PC), 0x200000F4)
T1D00 001:126.668 - 0.009ms returns 0
T1D00 001:126.675 JLINK_WriteReg(XPSR, 0x01000000)
T1D00 001:126.682 - 0.009ms returns 0
T1D00 001:126.688 JLINK_WriteReg(MSP, 0x20001000)
T1D00 001:126.695 - 0.009ms returns 0
T1D00 001:126.702 JLINK_WriteReg(PSP, 0x20001000)
T1D00 001:126.708 - 0.009ms returns 0
T1D00 001:126.715 JLINK_WriteReg(CFBP, 0x00000000)
T1D00 001:126.722 - 0.009ms returns 0
T1D00 001:126.730 JLINK_SetBPEx(Addr = 0x20000000, Type = 0xFFFFFFF2)
T1D00 001:126.738 - 0.011ms returns 0x00000009
T1D00 001:126.746 JLINK_Go()
T1D00 001:126.760   CPU_ReadMem(4 bytes @ 0xE0001000)
T1D00 001:127.829 - 1.094ms
T1D00 001:127.847 JLINK_IsHalted()
T1D00 001:128.043 - 0.201ms returns FALSE
T1D00 001:128.055 JLINK_HasError()
T1D00 001:130.075 JLINK_IsHalted()
T1D00 001:130.201 - 0.132ms returns FALSE
T1D00 001:130.213 JLINK_HasError()
T1D00 001:132.076 JLINK_IsHalted()
T1D00 001:132.204 - 0.136ms returns FALSE
T1D00 001:132.219 JLINK_HasError()
T1D00 001:134.078 JLINK_IsHalted()
T1D00 001:134.209 - 0.137ms returns FALSE
T1D00 001:134.222 JLINK_HasError()
T1D00 001:136.079 JLINK_IsHalted()
T1D00 001:136.202 - 0.130ms returns FALSE
T1D00 001:136.216 JLINK_HasError()
T1D00 001:138.079 JLINK_IsHalted()
T1D00 001:138.206 - 0.133ms returns FALSE
T1D00 001:138.219 JLINK_HasError()
T1D00 001:140.082 JLINK_IsHalted()
T1D00 001:140.203 - 0.127ms returns FALSE
T1D00 001:140.216 JLINK_HasError()
T1D00 001:142.084 JLINK_IsHalted()
T1D00 001:142.210 - 0.131ms returns FALSE
T1D00 001:142.222 JLINK_HasError()
T1D00 001:144.087 JLINK_IsHalted()
T1D00 001:144.207 - 0.123ms returns FALSE
T1D00 001:144.216 JLINK_HasError()
T1D00 001:146.087 JLINK_IsHalted()
T1D00 001:146.210 - 0.130ms returns FALSE
T1D00 001:146.224 JLINK_HasError()
T1D00 001:148.093 JLINK_IsHalted()
T1D00 001:148.213 - 0.126ms returns FALSE
T1D00 001:148.226 JLINK_HasError()
T1D00 001:150.091 JLINK_IsHalted()
T1D00 001:150.221 - 0.135ms returns FALSE
T1D00 001:150.233 JLINK_HasError()
T1D00 001:152.095 JLINK_IsHalted()
T1D00 001:152.230 - 0.138ms returns FALSE
T1D00 001:152.239 JLINK_HasError()
T1D00 001:154.097 JLINK_IsHalted()
T1D00 001:154.218 - 0.128ms returns FALSE
T1D00 001:154.232 JLINK_HasError()
T1D00 001:156.110 JLINK_IsHalted()
T1D00 001:156.238 - 0.136ms returns FALSE
T1D00 001:156.253 JLINK_HasError()
T1D00 001:158.120 JLINK_IsHalted()
T1D00 001:158.247 - 0.132ms returns FALSE
T1D00 001:158.259 JLINK_HasError()
T1D00 001:160.101 JLINK_IsHalted()
T1D00 001:161.067   CPU_ReadMem(2 bytes @ 0x20000000)
T1D00 001:161.198 - 1.104ms returns TRUE
T1D00 001:161.212 JLINK_ReadReg(R15 (PC))
T1D00 001:161.222 - 0.012ms returns 0x20000000
T1D00 001:161.229 JLINK_ClrBPEx(BPHandle = 0x00000009)
T1D00 001:161.235 - 0.009ms returns 0x00
T1D00 001:161.243 JLINK_ReadReg(R0)
T1D00 001:161.249 - 0.008ms returns 0x00000000
T1D00 001:161.844 JLINK_WriteMem(0x20000164, 0x400 Bytes, ...)
T1D00 001:161.854   Data:  88 42 23 D0 A1 20 03 F0 2F FE 03 F0 8B FA 71 49 ...
T1D00 001:161.871   CPU_WriteMem(1024 bytes @ 0x20000164)
T1D00 001:163.238 - 1.400ms returns 0x400
T1D00 001:163.251 JLINK_HasError()
T1D00 001:163.259 JLINK_WriteReg(R0, 0x08001400)
T1D00 001:163.267 - 0.011ms returns 0
T1D00 001:163.274 JLINK_WriteReg(R1, 0x00000400)
T1D00 001:163.280 - 0.008ms returns 0
T1D00 001:163.287 JLINK_WriteReg(R2, 0x20000164)
T1D00 001:163.293 - 0.008ms returns 0
T1D00 001:163.300 JLINK_WriteReg(R3, 0x00000000)
T1D00 001:163.306 - 0.012ms returns 0
T1D00 001:163.318 JLINK_WriteReg(R4, 0x00000000)
T1D00 001:163.324 - 0.008ms returns 0
T1D00 001:163.331 JLINK_WriteReg(R5, 0x00000000)
T1D00 001:163.337 - 0.008ms returns 0
T1D00 001:163.344 JLINK_WriteReg(R6, 0x00000000)
T1D00 001:163.350 - 0.008ms returns 0
T1D00 001:163.357 JLINK_WriteReg(R7, 0x00000000)
T1D00 001:163.362 - 0.008ms returns 0
T1D00 001:163.369 JLINK_WriteReg(R8, 0x00000000)
T1D00 001:163.375 - 0.008ms returns 0
T1D00 001:163.382 JLINK_WriteReg(R9, 0x20000160)
T1D00 001:163.388 - 0.008ms returns 0
T1D00 001:163.395 JLINK_WriteReg(R10, 0x00000000)
T1D00 001:163.400 - 0.008ms returns 0
T1D00 001:163.407 JLINK_WriteReg(R11, 0x00000000)
T1D00 001:163.413 - 0.008ms returns 0
T1D00 001:163.420 JLINK_WriteReg(R12, 0x00000000)
T1D00 001:163.425 - 0.008ms returns 0
T1D00 001:163.432 JLINK_WriteReg(R13 (SP), 0x20001000)
T1D00 001:163.438 - 0.009ms returns 0
T1D00 001:163.445 JLINK_WriteReg(R14, 0x20000001)
T1D00 001:163.451 - 0.009ms returns 0
T1D00 001:163.458 JLINK_WriteReg(R15 (PC), 0x200000F4)
T1D00 001:163.464 - 0.008ms returns 0
T1D00 001:163.472 JLINK_WriteReg(XPSR, 0x01000000)
T1D00 001:163.477 - 0.008ms returns 0
T1D00 001:163.484 JLINK_WriteReg(MSP, 0x20001000)
T1D00 001:163.490 - 0.008ms returns 0
T1D00 001:163.497 JLINK_WriteReg(PSP, 0x20001000)
T1D00 001:163.503 - 0.008ms returns 0
T1D00 001:163.510 JLINK_WriteReg(CFBP, 0x00000000)
T1D00 001:163.516 - 0.008ms returns 0
T1D00 001:163.522 JLINK_SetBPEx(Addr = 0x20000000, Type = 0xFFFFFFF2)
T1D00 001:163.529 - 0.009ms returns 0x0000000A
T1D00 001:163.536 JLINK_Go()
T1D00 001:163.548   CPU_ReadMem(4 bytes @ 0xE0001000)
T1D00 001:164.716 - 1.186ms
T1D00 001:164.730 JLINK_IsHalted()
T1D00 001:164.960 - 0.238ms returns FALSE
T1D00 001:164.974 JLINK_HasError()
T1D00 001:166.110 JLINK_IsHalted()
T1D00 001:166.250 - 0.146ms returns FALSE
T1D00 001:166.264 JLINK_HasError()
T1D00 001:167.639 JLINK_IsHalted()
T1D00 001:167.758 - 0.123ms returns FALSE
T1D00 001:167.767 JLINK_HasError()
T1D00 001:169.643 JLINK_IsHalted()
T1D00 001:169.766 - 0.127ms returns FALSE
T1D00 001:169.776 JLINK_HasError()
T1D00 001:171.645 JLINK_IsHalted()
T1D00 001:171.769 - 0.131ms returns FALSE
T1D00 001:171.783 JLINK_HasError()
T1D00 001:173.646 JLINK_IsHalted()
T1D00 001:173.764 - 0.120ms returns FALSE
T1D00 001:173.773 JLINK_HasError()
T1D00 001:175.646 JLINK_IsHalted()
T1D00 001:175.766 - 0.125ms returns FALSE
T1D00 001:175.777 JLINK_HasError()
T1D00 001:177.651 JLINK_IsHalted()
T1D00 001:177.775 - 0.131ms returns FALSE
T1D00 001:177.789 JLINK_HasError()
T1D00 001:179.652 JLINK_IsHalted()
T1D00 001:179.775 - 0.130ms returns FALSE
T1D00 001:179.788 JLINK_HasError()
T1D00 001:181.652 JLINK_IsHalted()
T1D00 001:181.778 - 0.133ms returns FALSE
T1D00 001:181.792 JLINK_HasError()
T1D00 001:186.660 JLINK_IsHalted()
T1D00 001:186.785 - 0.132ms returns FALSE
T1D00 001:186.799 JLINK_HasError()
T1D00 001:188.661 JLINK_IsHalted()
T1D00 001:188.787 - 0.132ms returns FALSE
T1D00 001:188.800 JLINK_HasError()
T1D00 001:190.663 JLINK_IsHalted()
T1D00 001:190.808 - 0.151ms returns FALSE
T1D00 001:190.821 JLINK_HasError()
T1D00 001:192.663 JLINK_IsHalted()
T1D00 001:192.786 - 0.130ms returns FALSE
T1D00 001:192.800 JLINK_HasError()
T1D00 001:194.665 JLINK_IsHalted()
T1D00 001:194.778 - 0.116ms returns FALSE
T1D00 001:194.787 JLINK_HasError()
T1D00 001:196.668 JLINK_IsHalted()
T1D00 001:197.555   CPU_ReadMem(2 bytes @ 0x20000000)
T1D00 001:197.716 - 1.053ms returns TRUE
T1D00 001:197.728 JLINK_ReadReg(R15 (PC))
T1D00 001:197.737 - 0.011ms returns 0x20000000
T1D00 001:197.744 JLINK_ClrBPEx(BPHandle = 0x0000000A)
T1D00 001:197.751 - 0.009ms returns 0x00
T1D00 001:197.758 JLINK_ReadReg(R0)
T1D00 001:197.764 - 0.008ms returns 0x00000000
T1D00 001:198.603 JLINK_WriteMem(0x20000164, 0x400 Bytes, ...)
T1D00 001:198.614   Data:  01 20 03 F0 2B FC DF 20 03 F0 28 FC 78 20 04 F0 ...
T1D00 001:198.628   CPU_WriteMem(1024 bytes @ 0x20000164)
T1D00 001:199.994 - 1.398ms returns 0x400
T1D00 001:200.010 JLINK_HasError()
T1D00 001:200.025 JLINK_WriteReg(R0, 0x08001800)
T1D00 001:200.035 - 0.013ms returns 0
T1D00 001:200.042 JLINK_WriteReg(R1, 0x00000400)
T1D00 001:200.048 - 0.009ms returns 0
T1D00 001:200.056 JLINK_WriteReg(R2, 0x20000164)
T1D00 001:200.062 - 0.009ms returns 0
T1D00 001:200.069 JLINK_WriteReg(R3, 0x00000000)
T1D00 001:200.075 - 0.008ms returns 0
T1D00 001:200.082 JLINK_WriteReg(R4, 0x00000000)
T1D00 001:200.088 - 0.008ms returns 0
T1D00 001:200.095 JLINK_WriteReg(R5, 0x00000000)
T1D00 001:200.101 - 0.008ms returns 0
T1D00 001:200.108 JLINK_WriteReg(R6, 0x00000000)
T1D00 001:200.114 - 0.009ms returns 0
T1D00 001:200.121 JLINK_WriteReg(R7, 0x00000000)
T1D00 001:200.127 - 0.008ms returns 0
T1D00 001:200.135 JLINK_WriteReg(R8, 0x00000000)
T1D00 001:200.141 - 0.008ms returns 0
T1D00 001:200.148 JLINK_WriteReg(R9, 0x20000160)
T1D00 001:200.154 - 0.008ms returns 0
T1D00 001:200.161 JLINK_WriteReg(R10, 0x00000000)
T1D00 001:200.167 - 0.009ms returns 0
T1D00 001:200.174 JLINK_WriteReg(R11, 0x00000000)
T1D00 001:200.181 - 0.009ms returns 0
T1D00 001:200.188 JLINK_WriteReg(R12, 0x00000000)
T1D00 001:200.194 - 0.009ms returns 0
T1D00 001:200.201 JLINK_WriteReg(R13 (SP), 0x20001000)
T1D00 001:200.208 - 0.009ms returns 0
T1D00 001:200.215 JLINK_WriteReg(R14, 0x20000001)
T1D00 001:200.221 - 0.009ms returns 0
T1D00 001:200.228 JLINK_WriteReg(R15 (PC), 0x200000F4)
T1D00 001:200.235 - 0.009ms returns 0
T1D00 001:200.241 JLINK_WriteReg(XPSR, 0x01000000)
T1D00 001:200.248 - 0.009ms returns 0
T1D00 001:200.255 JLINK_WriteReg(MSP, 0x20001000)
T1D00 001:200.262 - 0.009ms returns 0
T1D00 001:200.268 JLINK_WriteReg(PSP, 0x20001000)
T1D00 001:200.274 - 0.008ms returns 0
T1D00 001:200.281 JLINK_WriteReg(CFBP, 0x00000000)
T1D00 001:200.287 - 0.009ms returns 0
T1D00 001:200.295 JLINK_SetBPEx(Addr = 0x20000000, Type = 0xFFFFFFF2)
T1D00 001:200.301 - 0.010ms returns 0x0000000B
T1D00 001:200.310 JLINK_Go()
